***BUSMASTER Ver 3.2.2***
***PROTOCOL CAN***
***NOTE: PLEASE DO NOT EDIT THIS DOCUMENT***
***[START LOGGING SESSION]***
***START DATE AND TIME 6:1:2026 17:48:32:906***
***HEX***
***SYSTEM MODE***
***START CHANNEL BAUD RATE***
***CHANNEL 1 - Vector - VN1630A Channel 1 SN - 555459 - 500000 bps***
***END CHANNEL BAUD RATE***
***START DATABASE FILES***
***END DATABASE FILES***
***<Time><Tx/Rx><Channel><CAN ID><Type><DLC><DataBytes>***
17:48:32:9099 Rx 1 0x004 s 8 04 08 D0 8C 22 01 EC 85 
17:48:32:9102 Rx 1 0x103 s 8 10 81 03 06 00 05 0F 01 
17:48:32:9199 Rx 1 0x004 s 8 04 08 D0 8C 22 02 38 85 
17:48:32:9202 Rx 1 0x103 s 8 10 82 C9 06 00 05 0F 01 
17:48:32:9297 Rx 1 0x004 s 8 04 08 D0 8C 22 03 74 85 
17:48:32:9300 Rx 1 0x103 s 8 10 83 3D 06 00 05 0E FC 
17:48:32:9398 Rx 1 0x004 s 8 04 08 D0 8C 22 04 8D 85 
17:48:32:9401 Rx 1 0x103 s 8 10 84 F2 06 00 05 0E FC 
17:48:32:9499 Rx 1 0x004 s 8 04 08 D0 8C 22 05 C1 85 
17:48:32:9501 Rx 1 0x103 s 8 10 85 B4 06 00 05 0E FC 
17:48:32:9599 Rx 1 0x004 s 8 04 08 D0 8C 22 06 15 85 
17:48:32:9601 Rx 1 0x103 s 8 10 86 CC 06 00 05 0F 01 
17:48:32:9697 Rx 1 0x004 s 8 04 08 D0 8C 22 07 59 85 
17:48:32:9699 Rx 1 0x103 s 8 10 87 8A 06 00 05 0F 01 
17:48:32:9799 Rx 1 0x004 s 8 04 08 D0 8C 22 08 FA 85 
17:48:32:9801 Rx 1 0x103 s 8 10 88 4F 06 00 05 0F 01 
17:48:32:9899 Rx 1 0x004 s 8 04 08 D0 8C 22 09 B6 85 
17:48:32:9901 Rx 1 0x103 s 8 10 89 2E 06 00 05 0F 02 
17:48:32:9999 Rx 1 0x004 s 8 04 08 D0 8C 22 0A 62 85 
17:48:33:0001 Rx 1 0x103 s 8 10 8A E4 06 00 05 0F 02 
17:48:33:0097 Rx 1 0x004 s 8 04 08 D0 8C 22 0B 2E 85 
17:48:33:0099 Rx 1 0x103 s 8 10 8B A2 06 00 05 0F 02 
17:48:33:0198 Rx 1 0x004 s 8 04 08 D0 8C 22 0C D7 85 
17:48:33:0201 Rx 1 0x103 s 8 10 8C 0F 06 00 05 0E EE 
17:48:33:0298 Rx 1 0x004 s 8 04 08 D0 8C 22 0D 9B 85 
17:48:33:0301 Rx 1 0x103 s 8 10 8D 49 06 00 05 0E EE 
17:48:33:0396 Rx 1 0x004 s 8 04 08 D0 8C 22 0E 4F 85 
17:48:33:0399 Rx 1 0x103 s 8 10 8E 83 06 00 05 0E EE 
17:48:33:0497 Rx 1 0x004 s 8 04 08 D0 8C 22 0F 03 85 
17:48:33:0500 Rx 1 0x103 s 8 10 8F 80 06 00 05 0F 01 
17:48:33:0598 Rx 1 0x004 s 8 04 08 D0 8C 22 00 A0 85 
17:48:33:0600 Rx 1 0x103 s 8 10 80 45 06 00 05 0F 01 
17:48:33:0698 Rx 1 0x004 s 8 04 08 D0 8C 22 01 EC 85 
17:48:33:0700 Rx 1 0x103 s 8 10 81 03 06 00 05 0F 01 
17:48:33:0796 Rx 1 0x004 s 8 04 08 D0 8C 22 02 38 85 
17:48:33:0798 Rx 1 0x103 s 8 10 82 C9 06 00 05 0F 01 
17:48:33:0898 Rx 1 0x004 s 8 04 08 D0 8C 22 03 74 85 
17:48:33:0900 Rx 1 0x103 s 8 10 83 3D 06 00 05 0E FC 
17:48:33:0998 Rx 1 0x004 s 8 04 08 D0 8C 22 04 8D 85 
17:48:33:1000 Rx 1 0x103 s 8 10 84 F2 06 00 05 0E FC 
17:48:33:1098 Rx 1 0x004 s 8 04 08 D0 8C 22 05 C1 85 
17:48:33:1100 Rx 1 0x103 s 8 10 85 B4 06 00 05 0E FC 
17:48:33:1196 Rx 1 0x004 s 8 04 08 D0 8C 22 06 15 85 
17:48:33:1198 Rx 1 0x103 s 8 10 86 CC 06 00 05 0F 01 
17:48:33:1297 Rx 1 0x004 s 8 04 08 D0 8C 22 07 59 85 
17:48:33:1300 Rx 1 0x103 s 8 10 87 8A 06 00 05 0F 01 
17:48:33:1397 Rx 1 0x004 s 8 04 08 D0 8C 22 08 FA 85 
17:48:33:1400 Rx 1 0x103 s 8 10 88 4F 06 00 05 0F 01 
17:48:33:1497 Rx 1 0x004 s 8 04 08 D0 8C 22 09 B6 85 
17:48:33:1500 Rx 1 0x103 s 8 10 89 2E 06 00 05 0F 02 
17:48:33:1597 Rx 1 0x004 s 8 04 08 D0 8C 22 0A 62 85 
17:48:33:1599 Rx 1 0x103 s 8 10 8A E4 06 00 05 0F 02 
17:48:33:1695 Rx 1 0x004 s 8 04 08 D0 8C 22 0B 2E 85 
17:48:33:1698 Rx 1 0x103 s 8 10 8B A2 06 00 05 0F 02 
17:48:33:1797 Rx 1 0x004 s 8 04 08 D0 8C 22 0C D7 85 
17:48:33:1799 Rx 1 0x103 s 8 10 8C 0F 06 00 05 0E EE 
17:48:33:1897 Rx 1 0x004 s 8 04 08 D0 8C 22 0D 9B 85 
17:48:33:1899 Rx 1 0x103 s 8 10 8D 49 06 00 05 0E EE 
17:48:33:1995 Rx 1 0x004 s 8 04 08 D0 8C 22 0E 4F 85 
17:48:33:1997 Rx 1 0x103 s 8 10 8E 83 06 00 05 0E EE 
17:48:33:2097 Rx 1 0x004 s 8 04 08 D0 8C 22 0F 03 85 
17:48:33:2099 Rx 1 0x103 s 8 10 8F 80 06 00 05 0F 01 
17:48:33:2197 Rx 1 0x004 s 8 04 08 D0 8C 22 00 A0 85 
17:48:33:2199 Rx 1 0x103 s 8 10 80 45 06 00 05 0F 01 
17:48:33:2297 Rx 1 0x004 s 8 04 08 D0 8C 22 01 EC 85 
17:48:33:2299 Rx 1 0x103 s 8 10 81 03 06 00 05 0F 01 
17:48:33:2395 Rx 1 0x004 s 8 04 08 D0 8C 22 02 38 85 
17:48:33:2397 Rx 1 0x103 s 8 10 82 C9 06 00 05 0F 01 
17:48:33:2496 Rx 1 0x004 s 8 04 08 D0 8C 22 03 74 85 
17:48:33:2499 Rx 1 0x103 s 8 10 83 3D 06 00 05 0E FC 
17:48:33:2596 Rx 1 0x004 s 8 04 08 D0 8C 22 04 8D 85 
17:48:33:2599 Rx 1 0x103 s 8 10 84 F2 06 00 05 0E FC 
17:48:33:2696 Rx 1 0x004 s 8 04 08 D0 8C 22 05 C1 85 
17:48:33:2698 Rx 1 0x103 s 8 10 85 B4 06 00 05 0E FC 
17:48:33:2794 Rx 1 0x004 s 8 04 08 D0 8C 22 06 15 85 
17:48:33:2797 Rx 1 0x103 s 8 10 86 CC 06 00 05 0F 01 
17:48:33:2896 Rx 1 0x004 s 8 04 08 D0 8C 22 07 59 85 
17:48:33:2898 Rx 1 0x103 s 8 10 87 8A 06 00 05 0F 01 
17:48:33:2996 Rx 1 0x004 s 8 04 08 D0 8C 22 08 FA 85 
17:48:33:2998 Rx 1 0x103 s 8 10 88 4F 06 00 05 0F 01 
17:48:33:3096 Rx 1 0x004 s 8 04 08 D0 8C 22 09 B6 85 
17:48:33:3099 Rx 1 0x103 s 8 10 89 2E 06 00 05 0F 02 
17:48:33:3194 Rx 1 0x004 s 8 04 08 D0 8C 22 0A 62 85 
17:48:33:3196 Rx 1 0x103 s 8 10 8A E4 06 00 05 0F 02 
17:48:33:3296 Rx 1 0x004 s 8 04 08 D0 8C 22 0B 2E 85 
17:48:33:3298 Rx 1 0x103 s 8 10 8B A2 06 00 05 0F 02 
17:48:33:3396 Rx 1 0x004 s 8 04 08 D0 8C 22 0C D7 85 
17:48:33:3398 Rx 1 0x103 s 8 10 8C 0F 06 00 05 0E EE 
17:48:33:3496 Rx 1 0x004 s 8 04 08 D0 8C 22 0D 9B 85 
17:48:33:3498 Rx 1 0x103 s 8 10 8D 49 06 00 05 0E EE 
17:48:33:3594 Rx 1 0x004 s 8 04 08 D0 8C 22 0E 4F 85 
17:48:33:3596 Rx 1 0x103 s 8 10 8E 83 06 00 05 0E EE 
17:48:33:3695 Rx 1 0x004 s 8 04 08 D0 8C 22 0F 03 85 
17:48:33:3698 Rx 1 0x103 s 8 10 8F 80 06 00 05 0F 01 
17:48:33:3795 Rx 1 0x004 s 8 04 08 D0 8C 22 00 A0 85 
17:48:33:3797 Rx 1 0x103 s 8 10 80 45 06 00 05 0F 01 
17:48:33:3895 Rx 1 0x004 s 8 04 08 D0 8C 22 01 EC 85 
17:48:33:3898 Rx 1 0x103 s 8 10 81 03 06 00 05 0F 01 
17:48:33:3993 Rx 1 0x004 s 8 04 08 D0 8C 22 02 38 85 
17:48:33:3996 Rx 1 0x103 s 8 10 82 C9 06 00 05 0F 01 
17:48:33:4095 Rx 1 0x004 s 8 04 08 D0 8C 22 03 74 85 
17:48:33:4097 Rx 1 0x103 s 8 10 83 3D 06 00 05 0E FC 
17:48:33:4195 Rx 1 0x004 s 8 04 08 D0 8C 22 04 8D 85 
17:48:33:4197 Rx 1 0x103 s 8 10 84 F2 06 00 05 0E FC 
17:48:33:4293 Rx 1 0x004 s 8 04 08 D0 8C 22 05 C1 85 
17:48:33:4296 Rx 1 0x103 s 8 10 85 B4 06 00 05 0E FC 
17:48:33:4395 Rx 1 0x004 s 8 04 08 D0 8C 22 06 15 85 
17:48:33:4397 Rx 1 0x103 s 8 10 86 CC 06 00 05 0F 01 
17:48:33:4495 Rx 1 0x004 s 8 04 08 D0 8C 22 07 59 85 
17:48:33:4497 Rx 1 0x103 s 8 10 87 8A 06 00 05 0F 01 
17:48:33:4595 Rx 1 0x004 s 8 04 08 D0 8C 22 08 FA 85 
17:48:33:4597 Rx 1 0x103 s 8 10 88 4F 06 00 05 0F 01 
17:48:33:4695 Rx 1 0x004 s 8 04 08 D0 8C 22 09 B6 85 
17:48:33:4697 Rx 1 0x103 s 8 10 89 2E 06 00 05 0F 02 
17:48:33:4793 Rx 1 0x004 s 8 04 08 D0 8C 22 0A 62 85 
17:48:33:4795 Rx 1 0x103 s 8 10 8A E4 06 00 05 0F 02 
17:48:33:4894 Rx 1 0x004 s 8 04 08 D0 8C 22 0B 2E 85 
17:48:33:4896 Rx 1 0x103 s 8 10 8B A2 06 00 05 0F 02 
17:48:33:4994 Rx 1 0x004 s 8 04 08 D0 8C 22 0C D7 85 
17:48:33:4997 Rx 1 0x103 s 8 10 8C 0F 06 00 05 0E EE 
17:48:33:5095 Rx 1 0x004 s 8 04 08 D0 8C 22 0D 9B 85 
17:48:33:5097 Rx 1 0x103 s 8 10 8D 49 06 00 05 0E EE 
17:48:33:5193 Rx 1 0x004 s 8 04 08 D0 8C 22 0E 4F 85 
17:48:33:5195 Rx 1 0x103 s 8 10 8E 83 06 00 05 0E EE 
17:48:33:5294 Rx 1 0x004 s 8 04 08 D0 8C 22 0F 03 85 
17:48:33:5297 Rx 1 0x103 s 8 10 8F 80 06 00 05 0F 01 
17:48:33:5394 Rx 1 0x004 s 8 04 08 D0 8C 22 00 A0 85 
17:48:33:5397 Rx 1 0x103 s 8 10 80 45 06 00 05 0F 01 
17:48:33:5492 Rx 1 0x004 s 8 04 08 D0 8C 22 01 EC 85 
17:48:33:5495 Rx 1 0x103 s 8 10 81 03 06 00 05 0F 01 
17:48:33:5594 Rx 1 0x004 s 8 04 08 D0 8C 22 02 38 85 
17:48:33:5596 Rx 1 0x103 s 8 10 82 C9 06 00 05 0F 01 
17:48:33:5694 Rx 1 0x004 s 8 04 08 D0 8C 22 03 74 85 
17:48:33:5696 Rx 1 0x103 s 8 10 83 3D 06 00 05 0E FC 
17:48:33:5794 Rx 1 0x004 s 8 04 08 D0 8C 22 04 8D 85 
17:48:33:5796 Rx 1 0x103 s 8 10 84 F2 06 00 05 0E FC 
17:48:33:5892 Rx 1 0x004 s 8 04 08 D0 8C 22 05 C1 85 
17:48:33:5894 Rx 1 0x103 s 8 10 85 B4 06 00 05 0E FC 
17:48:33:5993 Rx 1 0x004 s 8 04 08 D0 8C 22 06 15 85 
17:48:33:5995 Rx 1 0x103 s 8 10 86 CC 06 00 05 0F 01 
17:48:33:6094 Rx 1 0x004 s 8 04 08 D0 8C 22 07 59 85 
17:48:33:6096 Rx 1 0x103 s 8 10 87 8A 06 00 05 0F 01 
17:48:33:6194 Rx 1 0x004 s 8 04 08 D0 8C 22 08 FA 85 
17:48:33:6196 Rx 1 0x103 s 8 10 88 4F 06 00 05 0F 01 
17:48:33:6292 Rx 1 0x004 s 8 04 08 D0 8C 22 09 B6 85 
17:48:33:6294 Rx 1 0x103 s 8 10 89 2E 06 00 05 0F 02 
17:48:33:6393 Rx 1 0x004 s 8 04 08 D0 8C 22 0A 62 85 
17:48:33:6395 Rx 1 0x103 s 8 10 8A E4 06 00 05 0F 02 
17:48:33:6493 Rx 1 0x004 s 8 04 08 D0 8C 22 0B 2E 85 
17:48:33:6495 Rx 1 0x103 s 8 10 8B A2 06 00 05 0F 02 
17:48:33:6593 Rx 1 0x004 s 8 04 08 D0 8C 22 0C D7 85 
17:48:33:6596 Rx 1 0x103 s 8 10 8C 0F 06 00 05 0E EE 
17:48:33:6691 Rx 1 0x004 s 8 04 08 D0 8C 22 0D 9B 85 
17:48:33:6693 Rx 1 0x103 s 8 10 8D 49 06 00 05 0E EE 
17:48:33:6793 Rx 1 0x004 s 8 04 08 D0 8C 22 0E 4F 85 
17:48:33:6795 Rx 1 0x103 s 8 10 8E 83 06 00 05 0E EE 
17:48:33:6893 Rx 1 0x004 s 8 04 08 D0 8C 22 0F 03 85 
17:48:33:6895 Rx 1 0x103 s 8 10 8F 80 06 00 05 0F 01 
17:48:33:6993 Rx 1 0x004 s 8 04 08 D0 8C 22 00 A0 85 
17:48:33:6995 Rx 1 0x103 s 8 10 80 45 06 00 05 0F 01 
17:48:33:7092 Rx 1 0x004 s 8 04 08 D0 8C 22 01 EC 85 
17:48:33:7095 Rx 1 0x103 s 8 10 81 03 06 00 05 0F 01 
17:48:33:7191 Rx 1 0x004 s 8 04 08 D0 8C 22 02 38 85 
17:48:33:7193 Rx 1 0x103 s 8 10 82 C9 06 00 05 0F 01 
17:48:33:7292 Rx 1 0x004 s 8 04 08 D0 8C 22 03 74 85 
17:48:33:7295 Rx 1 0x103 s 8 10 83 3D 06 00 05 0E FC 
17:48:33:7393 Rx 1 0x004 s 8 04 08 D0 8C 22 04 8D 85 
17:48:33:7395 Rx 1 0x103 s 8 10 84 F2 06 00 05 0E FC 
17:48:33:7491 Rx 1 0x004 s 8 04 08 D0 8C 22 05 C1 85 
17:48:33:7493 Rx 1 0x103 s 8 10 85 B4 06 00 05 0E FC 
17:48:33:7592 Rx 1 0x004 s 8 04 08 D0 8C 22 06 15 85 
17:48:33:7594 Rx 1 0x103 s 8 10 86 CC 06 00 05 0F 01 
17:48:33:7692 Rx 1 0x004 s 8 04 08 D0 8C 22 07 59 85 
17:48:33:7694 Rx 1 0x103 s 8 10 87 8A 06 00 05 0F 01 
17:48:33:7792 Rx 1 0x004 s 8 04 08 D0 8C 22 08 FA 85 
17:48:33:7795 Rx 1 0x103 s 8 10 88 4F 06 00 05 0F 01 
17:48:33:7890 Rx 1 0x004 s 8 04 08 D0 8C 22 09 B6 85 
17:48:33:7893 Rx 1 0x103 s 8 10 89 2E 06 00 05 0F 02 
17:48:33:7992 Rx 1 0x004 s 8 04 08 D0 8C 22 0A 62 85 
17:48:33:7994 Rx 1 0x103 s 8 10 8A E4 06 00 05 0F 02 
17:48:33:8092 Rx 1 0x004 s 8 04 08 D0 8C 22 0B 2E 85 
17:48:33:8094 Rx 1 0x103 s 8 10 8B A2 06 00 05 0F 02 
17:48:33:8191 Rx 1 0x004 s 8 04 08 D0 8C 22 0C D7 85 
17:48:33:8194 Rx 1 0x103 s 8 10 8C 0F 06 00 05 0E EE 
17:48:33:8290 Rx 1 0x004 s 8 04 08 D0 8C 22 0D 9B 85 
17:48:33:8292 Rx 1 0x103 s 8 10 8D 49 06 00 05 0E EE 
17:48:33:8392 Rx 1 0x004 s 8 04 08 D0 8C 22 0E 4F 85 
17:48:33:8394 Rx 1 0x103 s 8 10 8E 83 06 00 05 0E EE 
17:48:33:8492 Rx 1 0x004 s 8 04 08 D0 8C 22 0F 03 85 
17:48:33:8494 Rx 1 0x103 s 8 10 8F 80 06 00 05 0F 01 
17:48:33:8592 Rx 1 0x004 s 8 04 08 D0 8C 22 00 A0 85 
17:48:33:8594 Rx 1 0x103 s 8 10 80 45 06 00 05 0F 01 
17:48:33:8690 Rx 1 0x004 s 8 04 08 D0 8C 22 01 EC 85 
17:48:33:8692 Rx 1 0x103 s 8 10 81 03 06 00 05 0F 01 
17:48:33:8791 Rx 1 0x004 s 8 04 08 D0 8C 22 02 38 85 
17:48:33:8794 Rx 1 0x103 s 8 10 82 C9 06 00 05 0F 01 
17:48:33:8891 Rx 1 0x004 s 8 04 08 D0 8C 22 03 74 85 
17:48:33:8894 Rx 1 0x103 s 8 10 83 3D 06 00 05 0E FC 
17:48:33:8991 Rx 1 0x004 s 8 04 08 D0 8C 22 04 8D 85 
17:48:33:8994 Rx 1 0x103 s 8 10 84 F2 06 00 05 0E FC 
17:48:33:9089 Rx 1 0x004 s 8 04 08 D0 8C 22 05 C1 85 
17:48:33:9092 Rx 1 0x103 s 8 10 85 B4 06 00 05 0E FC 
17:48:33:9191 Rx 1 0x004 s 8 04 08 D0 8C 22 06 15 85 
17:48:33:9193 Rx 1 0x103 s 8 10 86 CC 06 00 05 0F 01 
17:48:33:9290 Rx 1 0x004 s 8 04 08 D0 8C 22 07 59 85 
17:48:33:9293 Rx 1 0x103 s 8 10 87 8A 06 00 05 0F 01 
17:48:33:9389 Rx 1 0x004 s 8 04 08 D0 8C 22 08 FA 85 
17:48:33:9391 Rx 1 0x103 s 8 10 88 4F 06 00 05 0F 01 
17:48:33:9490 Rx 1 0x004 s 8 04 08 D0 8C 22 09 B6 85 
17:48:33:9493 Rx 1 0x103 s 8 10 89 2E 06 00 05 0F 02 
17:48:33:9591 Rx 1 0x004 s 8 04 08 D0 8C 22 0A 62 85 
17:48:33:9593 Rx 1 0x103 s 8 10 8A E4 06 00 05 0F 02 
17:48:33:9691 Rx 1 0x004 s 8 04 08 D0 8C 22 0B 2E 85 
17:48:33:9693 Rx 1 0x103 s 8 10 8B A2 06 00 05 0F 02 
17:48:33:9791 Rx 1 0x004 s 8 04 08 D0 8C 22 0C D7 85 
17:48:33:9793 Rx 1 0x103 s 8 10 8C 0F 06 00 05 0E EE 
17:48:33:9889 Rx 1 0x004 s 8 04 08 D0 8C 22 0D 9B 85 
17:48:33:9891 Rx 1 0x103 s 8 10 8D 49 06 00 05 0E EE 
17:48:33:9990 Rx 1 0x004 s 8 04 08 D0 8C 22 0E 4F 85 
17:48:33:9992 Rx 1 0x103 s 8 10 8E 83 06 00 05 0E EE 
17:48:34:0090 Rx 1 0x004 s 8 04 08 D0 8C 22 0F 03 85 
17:48:34:0093 Rx 1 0x103 s 8 10 8F 80 06 00 05 0F 01 
17:48:34:0189 Rx 1 0x004 s 8 04 08 D0 8C 22 00 A0 85 
17:48:34:0191 Rx 1 0x103 s 8 10 80 45 06 00 05 0F 01 
17:48:34:0290 Rx 1 0x004 s 8 04 08 D0 8C 22 01 EC 85 
17:48:34:0292 Rx 1 0x103 s 8 10 81 03 06 00 05 0F 01 
17:48:34:0389 Rx 1 0x004 s 8 04 08 D0 8C 22 02 38 85 
17:48:34:0392 Rx 1 0x103 s 8 10 82 C9 06 00 05 0F 01 
17:48:34:0490 Rx 1 0x004 s 8 04 08 D0 8C 22 03 74 85 
17:48:34:0492 Rx 1 0x103 s 8 10 83 3D 06 00 05 0E FC 
17:48:34:0588 Rx 1 0x004 s 8 04 08 D0 8C 22 04 8D 85 
17:48:34:0590 Rx 1 0x103 s 8 10 84 F2 06 00 05 0E FC 
17:48:34:0690 Rx 1 0x004 s 8 04 08 D0 8C 22 05 C1 85 
17:48:34:0692 Rx 1 0x103 s 8 10 85 B4 06 00 05 0E FC 
17:48:34:0790 Rx 1 0x004 s 8 04 08 D0 8C 22 06 15 85 
17:48:34:0792 Rx 1 0x103 s 8 10 86 CC 06 00 05 0F 01 
17:48:34:0890 Rx 1 0x004 s 8 04 08 D0 8C 22 07 59 85 
17:48:34:0892 Rx 1 0x103 s 8 10 87 8A 06 00 05 0F 01 
17:48:34:0988 Rx 1 0x004 s 8 04 08 D0 8C 22 08 FA 85 
17:48:34:0990 Rx 1 0x103 s 8 10 88 4F 06 00 05 0F 01 
17:48:34:1089 Rx 1 0x004 s 8 04 08 D0 8C 22 09 B6 85 
17:48:34:1092 Rx 1 0x103 s 8 10 89 2E 06 00 05 0F 02 
17:48:34:1189 Rx 1 0x004 s 8 04 08 D0 8C 22 0A 62 85 
17:48:34:1192 Rx 1 0x103 s 8 10 8A E4 06 00 05 0F 02 
17:48:34:1287 Rx 1 0x004 s 8 04 08 D0 8C 22 0B 2E 85 
17:48:34:1290 Rx 1 0x103 s 8 10 8B A2 06 00 05 0F 02 
17:48:34:1389 Rx 1 0x004 s 8 04 08 D0 8C 22 0C D7 85 
17:48:34:1391 Rx 1 0x103 s 8 10 8C 0F 06 00 05 0E EE 
17:48:34:1488 Rx 1 0x004 s 8 04 08 D0 8C 22 0D 9B 85 
17:48:34:1491 Rx 1 0x103 s 8 10 8D 49 06 00 05 0E EE 
17:48:34:1589 Rx 1 0x004 s 8 04 08 D0 8C 22 0E 4F 85 
17:48:34:1591 Rx 1 0x103 s 8 10 8E 83 06 00 05 0E EE 
17:48:34:1689 Rx 1 0x004 s 8 04 08 D0 8C 22 0F 03 85 
17:48:34:1692 Rx 1 0x103 s 8 10 8F 80 06 00 05 0F 01 
17:48:34:1787 Rx 1 0x004 s 8 04 08 D0 8C 22 00 A0 85 
17:48:34:1790 Rx 1 0x103 s 8 10 80 45 06 00 05 0F 01 
17:48:34:1889 Rx 1 0x004 s 8 04 08 D0 8C 22 01 EC 85 
17:48:34:1891 Rx 1 0x103 s 8 10 81 03 06 00 05 0F 01 
17:48:34:1989 Rx 1 0x004 s 8 04 08 D0 8C 22 02 38 85 
17:48:34:1991 Rx 1 0x103 s 8 10 82 C9 06 00 05 0F 01 
17:48:34:2089 Rx 1 0x004 s 8 04 08 D0 8C 22 03 74 85 
17:48:34:2091 Rx 1 0x103 s 8 10 83 3D 06 00 05 0E FC 
17:48:34:2187 Rx 1 0x004 s 8 04 08 D0 8C 22 04 8D 85 
17:48:34:2189 Rx 1 0x103 s 8 10 84 F2 06 00 05 0E FC 
17:48:34:2288 Rx 1 0x004 s 8 04 08 D0 8C 22 05 C1 85 
17:48:34:2291 Rx 1 0x103 s 8 10 85 B4 06 00 05 0E FC 
17:48:34:2388 Rx 1 0x004 s 8 04 08 D0 8C 22 06 15 85 
17:48:34:2391 Rx 1 0x103 s 8 10 86 CC 06 00 05 0F 01 
17:48:34:2486 Rx 1 0x004 s 8 04 08 D0 8C 22 07 59 85 
17:48:34:2489 Rx 1 0x103 s 8 10 87 8A 06 00 05 0F 01 
17:48:34:2587 Rx 1 0x004 s 8 04 08 D0 8C 22 08 FA 85 
17:48:34:2590 Rx 1 0x103 s 8 10 88 4F 06 00 05 0F 01 
17:48:34:2688 Rx 1 0x004 s 8 04 08 D0 8C 22 09 B6 85 
17:48:34:2690 Rx 1 0x103 s 8 10 89 2E 06 00 05 0F 02 
17:48:34:2788 Rx 1 0x004 s 8 04 08 D0 8C 22 0A 62 85 
17:48:34:2790 Rx 1 0x103 s 8 10 8A E4 06 00 05 0F 02 
17:48:34:2888 Rx 1 0x004 s 8 04 08 D0 8C 22 0B 2E 85 
17:48:34:2890 Rx 1 0x103 s 8 10 8B A2 06 00 05 0F 02 
17:48:34:2986 Rx 1 0x004 s 8 04 08 D0 8C 22 0C D7 85 
17:48:34:2989 Rx 1 0x103 s 8 10 8C 0F 06 00 05 0E EE 
17:48:34:3088 Rx 1 0x004 s 8 04 08 D0 8C 22 0D 9B 85 
17:48:34:3090 Rx 1 0x103 s 8 10 8D 49 06 00 05 0E EE 
17:48:34:3188 Rx 1 0x004 s 8 04 08 D0 8C 22 0E 4F 85 
17:48:34:3190 Rx 1 0x103 s 8 10 8E 83 06 00 05 0E EE 
17:48:34:3286 Rx 1 0x004 s 8 04 08 D0 8C 22 0F 03 85 
17:48:34:3288 Rx 1 0x103 s 8 10 8F 80 06 00 05 0F 01 
17:48:34:3387 Rx 1 0x004 s 8 04 08 D0 8C 22 00 A0 85 
17:48:34:3390 Rx 1 0x103 s 8 10 80 45 06 00 05 0F 01 
17:48:34:3487 Rx 1 0x004 s 8 04 08 D0 8C 22 01 EC 85 
17:48:34:3490 Rx 1 0x103 s 8 10 81 03 06 00 05 0F 01 
17:48:34:3587 Rx 1 0x004 s 8 04 08 D0 8C 22 02 38 85 
17:48:34:3590 Rx 1 0x103 s 8 10 82 C9 06 00 05 0F 01 
17:48:34:3687 Rx 1 0x004 s 8 04 08 D0 8C 22 03 74 85 
17:48:34:3689 Rx 1 0x103 s 8 10 83 3D 06 00 05 0E FC 
17:48:34:3786 Rx 1 0x004 s 8 04 08 D0 8C 22 04 8D 85 
17:48:34:3788 Rx 1 0x103 s 8 10 84 F2 06 00 05 0E FC 
17:48:34:3887 Rx 1 0x004 s 8 04 08 D0 8C 22 05 C1 85 
17:48:34:3889 Rx 1 0x103 s 8 10 85 B4 06 00 05 0E FC 
17:48:34:3987 Rx 1 0x004 s 8 04 08 D0 8C 22 06 15 85 
17:48:34:3989 Rx 1 0x103 s 8 10 86 CC 06 00 05 0F 01 
17:48:34:4087 Rx 1 0x004 s 8 04 08 D0 8C 22 07 59 85 
17:48:34:4090 Rx 1 0x103 s 8 10 87 8A 06 00 05 0F 01 
17:48:34:4185 Rx 1 0x004 s 8 04 08 D0 8C 22 08 FA 85 
17:48:34:4188 Rx 1 0x103 s 8 10 88 4F 06 00 05 0F 01 
17:48:34:4287 Rx 1 0x004 s 8 04 08 D0 8C 22 09 B6 85 
17:48:34:4289 Rx 1 0x103 s 8 10 89 2E 06 00 05 0F 02 
17:48:34:4387 Rx 1 0x004 s 8 04 08 D0 8C 22 0A 62 85 
17:48:34:4389 Rx 1 0x103 s 8 10 8A E4 06 00 05 0F 02 
17:48:34:4485 Rx 1 0x004 s 8 04 08 D0 8C 22 0B 2E 85 
17:48:34:4487 Rx 1 0x103 s 8 10 8B A2 06 00 05 0F 02 
17:48:34:4586 Rx 1 0x004 s 8 04 08 D0 8C 22 0C D7 85 
17:48:34:4589 Rx 1 0x103 s 8 10 8C 0F 06 00 05 0E EE 
17:48:34:4686 Rx 1 0x004 s 8 04 08 D0 8C 22 0D 9B 85 
17:48:34:4689 Rx 1 0x103 s 8 10 8D 49 06 00 05 0E EE 
17:48:34:4786 Rx 1 0x004 s 8 04 08 D0 8C 22 0E 4F 85 
17:48:34:4788 Rx 1 0x103 s 8 10 8E 83 06 00 05 0E EE 
17:48:34:4885 Rx 1 0x004 s 8 04 08 D0 8C 22 0F 03 85 
17:48:34:4887 Rx 1 0x103 s 8 10 8F 80 06 00 05 0F 01 
17:48:34:4986 Rx 1 0x004 s 8 04 08 D0 8C 22 00 A0 85 
17:48:34:4988 Rx 1 0x103 s 8 10 80 45 06 00 05 0F 01 
17:48:34:5086 Rx 1 0x004 s 8 04 08 D0 8C 22 01 EC 85 
17:48:34:5089 Rx 1 0x103 s 8 10 81 03 06 00 05 0F 01 
17:48:34:5186 Rx 1 0x004 s 8 04 08 D0 8C 22 02 38 85 
17:48:34:5189 Rx 1 0x103 s 8 10 82 C9 06 00 05 0F 01 
17:48:34:5284 Rx 1 0x004 s 8 04 08 D0 8C 22 03 74 85 
17:48:34:5287 Rx 1 0x103 s 8 10 83 3D 06 00 05 0E FC 
17:48:34:5386 Rx 1 0x004 s 8 04 08 D0 8C 22 04 8D 85 
17:48:34:5388 Rx 1 0x103 s 8 10 84 F2 06 00 05 0E FC 
17:48:34:5486 Rx 1 0x004 s 8 04 08 D0 8C 22 05 C1 85 
17:48:34:5488 Rx 1 0x103 s 8 10 85 B4 06 00 05 0E FC 
17:48:34:5586 Rx 1 0x004 s 8 04 08 D0 8C 22 06 15 85 
17:48:34:5588 Rx 1 0x103 s 8 10 86 CC 06 00 05 0F 01 
17:48:34:5684 Rx 1 0x004 s 8 04 08 D0 8C 22 07 59 85 
17:48:34:5686 Rx 1 0x103 s 8 10 87 8A 06 00 05 0F 01 
17:48:34:5785 Rx 1 0x004 s 8 04 08 D0 8C 22 08 FA 85 
17:48:34:5788 Rx 1 0x103 s 8 10 88 4F 06 00 05 0F 01 
17:48:34:5885 Rx 1 0x004 s 8 04 08 D0 8C 22 09 B6 85 
17:48:34:5887 Rx 1 0x103 s 8 10 89 2E 06 00 05 0F 02 
17:48:34:5986 Rx 1 0x004 s 8 04 08 D0 8C 22 0A 62 85 
17:48:34:5988 Rx 1 0x103 s 8 10 8A E4 06 00 05 0F 02 
17:48:34:6084 Rx 1 0x004 s 8 04 08 D0 8C 22 0B 2E 85 
17:48:34:6086 Rx 1 0x103 s 8 10 8B A2 06 00 05 0F 02 
17:48:34:6185 Rx 1 0x004 s 8 04 08 D0 8C 22 0C D7 85 
17:48:34:6188 Rx 1 0x103 s 8 10 8C 0F 06 00 05 0E EE 
17:48:34:6285 Rx 1 0x004 s 8 04 08 D0 8C 22 0D 9B 85 
17:48:34:6288 Rx 1 0x103 s 8 10 8D 49 06 00 05 0E EE 
17:48:34:6385 Rx 1 0x004 s 8 04 08 D0 8C 22 0E 4F 85 
17:48:34:6388 Rx 1 0x103 s 8 10 8E 83 06 00 05 0E EE 
17:48:34:6483 Rx 1 0x004 s 8 04 08 D0 8C 22 0F 03 85 
17:48:34:6486 Rx 1 0x103 s 8 10 8F 80 06 00 05 0F 01 
17:48:34:6585 Rx 1 0x004 s 8 04 08 D0 8C 22 00 A0 85 
17:48:34:6587 Rx 1 0x103 s 8 10 80 45 06 00 05 0F 01 
17:48:34:6685 Rx 1 0x004 s 8 04 08 D0 8C 22 01 EC 85 
17:48:34:6687 Rx 1 0x103 s 8 10 81 03 06 00 05 0F 01 
17:48:34:6785 Rx 1 0x004 s 8 04 08 D0 8C 22 02 38 85 
17:48:34:6787 Rx 1 0x103 s 8 10 82 C9 06 00 05 0F 01 
17:48:34:6883 Rx 1 0x004 s 8 04 08 D0 8C 22 03 74 85 
17:48:34:6885 Rx 1 0x103 s 8 10 83 3D 06 00 05 0E FC 
17:48:34:6984 Rx 1 0x004 s 8 04 08 D0 8C 22 04 8D 85 
17:48:34:6986 Rx 1 0x103 s 8 10 84 F2 06 00 05 0E FC 
17:48:34:7085 Rx 1 0x004 s 8 04 08 D0 8C 22 05 C1 85 
17:48:34:7087 Rx 1 0x103 s 8 10 85 B4 06 00 05 0E FC 
17:48:34:7183 Rx 1 0x004 s 8 04 08 D0 8C 22 06 15 85 
17:48:34:7185 Rx 1 0x103 s 8 10 86 CC 06 00 05 0F 01 
17:48:34:7284 Rx 1 0x004 s 8 04 08 D0 8C 22 07 59 85 
17:48:34:7286 Rx 1 0x103 s 8 10 87 8A 06 00 05 0F 01 
17:48:34:7384 Rx 1 0x004 s 8 04 08 D0 8C 22 08 FA 85 
17:48:34:7387 Rx 1 0x103 s 8 10 88 4F 06 00 05 0F 01 
17:48:34:7484 Rx 1 0x004 s 8 04 08 D0 8C 22 09 B6 85 
17:48:34:7487 Rx 1 0x103 s 8 10 89 2E 06 00 05 0F 02 
17:48:34:7584 Rx 1 0x004 s 8 04 08 D0 8C 22 0A 62 85 
17:48:34:7587 Rx 1 0x103 s 8 10 8A E4 06 00 05 0F 02 
17:48:34:7682 Rx 1 0x004 s 8 04 08 D0 8C 22 0B 2E 85 
17:48:34:7685 Rx 1 0x103 s 8 10 8B A2 06 00 05 0F 02 
17:48:34:7784 Rx 1 0x004 s 8 04 08 D0 8C 22 0C D7 85 
17:48:34:7786 Rx 1 0x103 s 8 10 8C 0F 06 00 05 0E EE 
17:48:34:7884 Rx 1 0x004 s 8 04 08 D0 8C 22 0D 9B 85 
17:48:34:7886 Rx 1 0x103 s 8 10 8D 49 06 00 05 0E EE 
17:48:34:7984 Rx 1 0x004 s 8 04 08 D0 8C 22 0E 4F 85 
17:48:34:7986 Rx 1 0x103 s 8 10 8E 83 06 00 05 0E EE 
17:48:34:8084 Rx 1 0x004 s 8 04 08 D0 8C 22 0F 03 85 
17:48:34:8086 Rx 1 0x103 s 8 10 8F 80 06 00 05 0F 01 
17:48:34:8182 Rx 1 0x004 s 8 04 08 D0 8C 22 00 A0 85 
17:48:34:8185 Rx 1 0x103 s 8 10 80 45 06 00 05 0F 01 
17:48:34:8284 Rx 1 0x004 s 8 04 08 D0 8C 22 01 EC 85 
17:48:34:8286 Rx 1 0x103 s 8 10 81 03 06 00 05 0F 01 
17:48:34:8382 Rx 1 0x004 s 8 04 08 D0 8C 22 02 38 85 
17:48:34:8384 Rx 1 0x103 s 8 10 82 C9 06 00 05 0F 01 
17:48:34:8483 Rx 1 0x004 s 8 04 08 D0 8C 22 03 74 85 
17:48:34:8486 Rx 1 0x103 s 8 10 83 3D 06 00 05 0E FC 
17:48:34:8583 Rx 1 0x004 s 8 04 08 D0 8C 22 04 8D 85 
17:48:34:8586 Rx 1 0x103 s 8 10 84 F2 06 00 05 0E FC 
17:48:34:8683 Rx 1 0x004 s 8 04 08 D0 8C 22 05 C1 85 
17:48:34:8686 Rx 1 0x103 s 8 10 85 B4 06 00 05 0E FC 
17:48:34:8783 Rx 1 0x004 s 8 04 08 D0 8C 22 06 15 85 
17:48:34:8786 Rx 1 0x103 s 8 10 86 CC 06 00 05 0F 01 
17:48:34:8881 Rx 1 0x004 s 8 04 08 D0 8C 22 07 59 85 
17:48:34:8884 Rx 1 0x103 s 8 10 87 8A 06 00 05 0F 01 
17:48:34:8983 Rx 1 0x004 s 8 04 08 D0 8C 22 08 FA 85 
17:48:34:8985 Rx 1 0x103 s 8 10 88 4F 06 00 05 0F 01 
17:48:34:9083 Rx 1 0x004 s 8 04 08 D0 8C 22 09 B6 85 
17:48:34:9085 Rx 1 0x103 s 8 10 89 2E 06 00 05 0F 02 
17:48:34:9183 Rx 1 0x004 s 8 04 08 D0 8C 22 0A 62 85 
17:48:34:9185 Rx 1 0x103 s 8 10 8A E4 06 00 05 0F 02 
17:48:34:9281 Rx 1 0x004 s 8 04 08 D0 8C 22 0B 2E 85 
17:48:34:9283 Rx 1 0x103 s 8 10 8B A2 06 00 05 0F 02 
17:48:34:9383 Rx 1 0x004 s 8 04 08 D0 8C 22 0C D7 85 
17:48:34:9385 Rx 1 0x103 s 8 10 8C 0F 06 00 05 0E EE 
17:48:34:9483 Rx 1 0x004 s 8 04 08 D0 8C 22 0D 9B 85 
17:48:34:9485 Rx 1 0x103 s 8 10 8D 49 06 00 05 0E EE 
17:48:34:9581 Rx 1 0x004 s 8 04 08 D0 8C 22 0E 4F 85 
17:48:34:9583 Rx 1 0x103 s 8 10 8E 83 06 00 05 0E EE 
17:48:34:9682 Rx 1 0x004 s 8 04 08 D0 8C 22 0F 03 85 
17:48:34:9685 Rx 1 0x103 s 8 10 8F 80 06 00 05 0F 01 
17:48:34:9782 Rx 1 0x004 s 8 04 08 D0 8C 22 00 A0 85 
17:48:34:9785 Rx 1 0x103 s 8 10 80 45 06 00 05 0F 01 
17:48:34:9882 Rx 1 0x004 s 8 04 08 D0 8C 22 01 EC 85 
17:48:34:9885 Rx 1 0x103 s 8 10 81 03 06 00 05 0F 01 
17:48:34:9982 Rx 1 0x004 s 8 04 08 D0 8C 22 02 38 85 
17:48:34:9985 Rx 1 0x103 s 8 10 82 C9 06 00 05 0F 01 
17:48:35:0081 Rx 1 0x004 s 8 04 08 D0 8C 22 03 74 85 
17:48:35:0083 Rx 1 0x103 s 8 10 83 3D 06 00 05 0E FC 
17:48:35:0182 Rx 1 0x004 s 8 04 08 D0 8C 22 04 8D 85 
17:48:35:0184 Rx 1 0x103 s 8 10 84 F2 06 00 05 0E FC 
17:48:35:0282 Rx 1 0x004 s 8 04 08 D0 8C 22 05 C1 85 
17:48:35:0284 Rx 1 0x103 s 8 10 85 B4 06 00 05 0E FC 
17:48:35:0380 Rx 1 0x004 s 8 04 08 D0 8C 22 06 15 85 
17:48:35:0382 Rx 1 0x103 s 8 10 86 CC 06 00 05 0F 01 
17:48:35:0482 Rx 1 0x004 s 8 04 08 D0 8C 22 07 59 85 
17:48:35:0484 Rx 1 0x103 s 8 10 87 8A 06 00 05 0F 01 
17:48:35:0582 Rx 1 0x004 s 8 04 08 D0 8C 22 08 FA 85 
17:48:35:0584 Rx 1 0x103 s 8 10 88 4F 06 00 05 0F 01 
17:48:35:0680 Rx 1 0x004 s 8 04 08 D0 8C 22 09 B6 85 
17:48:35:0682 Rx 1 0x103 s 8 10 89 2E 06 00 05 0F 02 
17:48:35:0781 Rx 1 0x004 s 8 04 08 D0 8C 22 0A 62 85 
17:48:35:0784 Rx 1 0x103 s 8 10 8A E4 06 00 05 0F 02 
17:48:35:0881 Rx 1 0x004 s 8 04 08 D0 8C 22 0B 2E 85 
17:48:35:0884 Rx 1 0x103 s 8 10 8B A2 06 00 05 0F 02 
17:48:35:0981 Rx 1 0x004 s 8 04 08 D0 8C 22 0C D7 85 
17:48:35:0984 Rx 1 0x103 s 8 10 8C 0F 06 00 05 0E EE 
17:48:35:1082 Rx 1 0x004 s 8 04 08 D0 8C 22 0D 9B 85 
17:48:35:1084 Rx 1 0x103 s 8 10 8D 49 06 00 05 0E EE 
17:48:35:1180 Rx 1 0x004 s 8 04 08 D0 8C 22 0E 4F 85 
17:48:35:1182 Rx 1 0x103 s 8 10 8E 83 06 00 05 0E EE 
17:48:35:1281 Rx 1 0x004 s 8 04 08 D0 8C 22 0F 03 85 
17:48:35:1283 Rx 1 0x103 s 8 10 8F 80 06 00 05 0F 01 
